
T2D20 000:003 SEGGER J-Link V6.16c Log File (0000ms, 0002ms total)
T2D20 000:003 DLL Compiled: Jun 16 2017 18:14:49 (0000ms, 0002ms total)
T2D20 000:003 Logging started @ 2019-10-22 10:16 (0000ms, 0002ms total)
T2D20 000:003 JLINK_SetWarnOutHandler(...) (0000ms, 0002ms total)
T2D20 000:003 JLINK_OpenEx(...)
Firmware: J-Link V9 compiled Jun  2 2222 22:22:22
Hardware: V9.40
S/N: 81480416
Feature(s): GDB, RDI, FlashBP, FlashDL, JFlash, RDDIWEBSRV Webserver running on local port 19080 (0016ms, 0018ms total)
T2D20 000:003   returns O.K. (0016ms, 0018ms total)
T2D20 000:019 JLINK_GetEmuCaps()  returns 0xB9FF7BBF (0000ms, 0018ms total)
T2D20 000:019 JLINK_TIF_GetAvailable(...) (0000ms, 0018ms total)
T2D20 000:019 JLINK_SetErrorOutHandler(...) (0000ms, 0018ms total)
T2D20 000:019 JLINK_ExecCommand("ProjectFile = "E:\ucosiii\Micrium_STM32F407_OS3\Micrium\Examples\ST\STM32F429II-SK\OS3\KeilMDK\JLinkSettings.ini"", ...).   returns 0x00 (0164ms, 0182ms total)
T2D20 000:183 JLINK_ExecCommand("Device = STM32F407VE", ...). Device "STM32F407VE" selected.  returns 0x00 (0002ms, 0184ms total)
T2D20 000:185 JLINK_ExecCommand("DisableConnectionTimeout", ...).   returns 0x01 (0000ms, 0184ms total)
T2D20 000:185 JLINK_GetHardwareVersion()  returns 0x16F30 (0000ms, 0184ms total)
T2D20 000:185 JLINK_GetDLLVersion()  returns 61603 (0000ms, 0184ms total)
T2D20 000:185 JLINK_GetFirmwareString(...) (0000ms, 0184ms total)
T2D20 000:185 JLINK_GetDLLVersion()  returns 61603 (0000ms, 0184ms total)
T2D20 000:185 JLINK_GetCompileDateTime() (0000ms, 0184ms total)
T2D20 000:185 JLINK_GetFirmwareString(...) (0000ms, 0184ms total)
T2D20 000:185 JLINK_GetHardwareVersion()  returns 0x16F30 (0000ms, 0184ms total)
T2D20 000:185 JLINK_TIF_Select(JLINKARM_TIF_JTAG)  returns 0x00 (0001ms, 0185ms total)
T2D20 000:186 JLINK_SetSpeed(5000) (0000ms, 0185ms total)
T2D20 000:186 JLINK_GetIdData(...) >0x2F8 JTAG>TotalIRLen = 9, IRPrint = 0x0011 >0x30 JTAG> >0x50 JTAG>JTAG chain detection found 2 devices: #0 Id: 0x4BA00477, IRLen: 04, CoreSight JTAG-DP #1 Id: 0x06413041, IRLen: 05, STM32 Boundary Scan >0x40 JTAG> >0x40 JTAG> >0x40 JTAG> >0x30 JTAG> >0x40 JTAG> >0x40 JTAG> >0x40 JTAG> >0x40 JTAG> >0x40 JTAG> >0x40 JTAG> >0x40 JTAG> >0x40 JTAG> >0x40 JTAG> >0x40 JTAG> >0x40 JTAG> >0x40 JTAG> >0x40 JTAG> >0x40 JTAG> >0x40 JTAG> >0x40 JTAG> >0x40 JTAG> >0x40 JTAG>
 >0x40 JTAG> >0x40 JTAG> >0x2F8 JTAG>TotalIRLen = 9, IRPrint = 0x0011 >0x30 JTAG> >0x50 JTAG>JTAG chain detection found 2 devices: #0 Id: 0x4BA00477, IRLen: 04, CoreSight JTAG-DP #1 Id: 0x06413041, IRLen: 05, STM32 Boundary ScanScanning APs, stopping at first AHB-AP found. >0x80 JTAG> >0x50 JTAG> >0x50 JTAG>AP[0] IDR: 0x24770011 (AHB-AP) >0x40 JTAG> >0x50 JTAG> >0x50 JTAG>AHB-AP ROM: 0xE00FF000 (Base addr. of first ROM table) >0x80 JTAG> >0x40 JTAG> >0x30 JTAG> >0x40 JTAG> >0x40 JTAG> >0x30 JTAG>
 >0x40 JTAG> >0x50 JTAG>CPUID reg.: 0x410FC241. Implementer code: 0x41 (ARM)Found Cortex-M4 r0p1, Little endian. -- CPU_ReadMem(4 bytes @ 0xE000EDF0) -- CPU_WriteMem(4 bytes @ 0xE000EDF0) -- CPU_ReadMem(4 bytes @ 0xE0002000)FPUnit: 6 code (BP) slots and 2 literal slots -- CPU_ReadMem(4 bytes @ 0xE000EDFC) -- CPU_WriteMem(4 bytes @ 0xE000EDFC) -- CPU_ReadMem(4 bytes @ 0xE0001000) -- CPU_WriteMem(4 bytes @ 0xE0001000) -- CPU_ReadMem(4 bytes @ 0xE000ED88) -- CPU_WriteMem(4 bytes @ 0xE000ED88)
 -- CPU_ReadMem(4 bytes @ 0xE000ED88) -- CPU_WriteMem(4 bytes @ 0xE000ED88)CoreSight components:ROMTbl[0] @ E00FF000 -- CPU_ReadMem(16 bytes @ 0xE00FF000) -- CPU_ReadMem(16 bytes @ 0xE000EFF0) -- CPU_ReadMem(16 bytes @ 0xE000EFE0)ROMTbl[0][0]: E000E000, CID: B105E00D, PID: 000BB00C SCS -- CPU_ReadMem(16 bytes @ 0xE0001FF0) -- CPU_ReadMem(16 bytes @ 0xE0001FE0)ROMTbl[0][1]: E0001000, CID: B105E00D, PID: 003BB002 DWT -- CPU_ReadMem(16 bytes @ 0xE0002FF0) -- CPU_ReadMem(16 bytes @ 0xE0002FE0)
ROMTbl[0][2]: E0002000, CID: B105E00D, PID: 002BB003 FPB -- CPU_ReadMem(16 bytes @ 0xE0000FF0) -- CPU_ReadMem(16 bytes @ 0xE0000FE0)ROMTbl[0][3]: E0000000, CID: B105E00D, PID: 003BB001 ITM -- CPU_ReadMem(16 bytes @ 0xE00FF010) -- CPU_ReadMem(16 bytes @ 0xE0040FF0) -- CPU_ReadMem(16 bytes @ 0xE0040FE0)ROMTbl[0][4]: E0040000, CID: B105900D, PID: 000BB9A1 TPIU -- CPU_ReadMem(16 bytes @ 0xE0041FF0) -- CPU_ReadMem(16 bytes @ 0xE0041FE0)ROMTbl[0][5]: E0041000, CID: B105900D, PID: 000BB925 ETM ScanLen=9
 NumDevices=2 aId[0]=0x4BA00477 aIrRead[0]=0 aScanLen[0]=0 aScanRead[0]=0 (0021ms, 0206ms total)
T2D20 000:207 JLINK_JTAG_GetDeviceID(DeviceIndex = 0)  returns 0x4BA00477 (0000ms, 0206ms total)
T2D20 000:207 JLINK_JTAG_GetDeviceInfo(DeviceIndex = 0)  returns 0x00 (0000ms, 0206ms total)
T2D20 000:207 JLINK_JTAG_GetDeviceID(DeviceIndex = 1)  returns 0x6413041 (0000ms, 0206ms total)
T2D20 000:207 JLINK_JTAG_GetDeviceInfo(DeviceIndex = 1)  returns 0x00 (0000ms, 0206ms total)
T2D20 000:207 JLINK_GetDLLVersion()  returns 61603 (0000ms, 0206ms total)
T2D20 000:207 JLINK_CORE_GetFound()  returns 0xE0000FF (0000ms, 0206ms total)
T2D20 000:207 JLINK_GetDebugInfo(0x100 = JLINKARM_ROM_TABLE_ADDR_INDEX) -- Value=0xE00FF000  returns 0x00 (0000ms, 0206ms total)
T2D20 000:207 JLINK_GetDebugInfo(0x100 = JLINKARM_ROM_TABLE_ADDR_INDEX) -- Value=0xE00FF000  returns 0x00 (0000ms, 0206ms total)
T2D20 000:207 JLINK_GetDebugInfo(0x101 = JLINKARM_DEBUG_INFO_ETM_ADDR_INDEX) -- Value=0xE0041000  returns 0x00 (0000ms, 0206ms total)
T2D20 000:207 JLINK_ReadMemEx(0xE0041FD0, 0x0020 Bytes, ..., Flags = 0x02000004) -- CPU_ReadMem(32 bytes @ 0xE0041FD0) - Data: 04 00 00 00 00 00 00 00 00 00 00 00 00 00 00 00 ...  returns 0x20 (0001ms, 0207ms total)
T2D20 000:208 JLINK_GetDebugInfo(0x102 = JLINKARM_DEBUG_INFO_MTB_ADDR_INDEX) -- Value=0x00000000  returns 0x00 (0000ms, 0207ms total)
T2D20 000:208 JLINK_GetDebugInfo(0x103 = JLINKARM_DEBUG_INFO_TPIU_ADDR_INDEX) -- Value=0xE0040000  returns 0x00 (0000ms, 0207ms total)
T2D20 000:208 JLINK_GetDebugInfo(0x104 = JLINKARM_DEBUG_INFO_ITM_ADDR_INDEX) -- Value=0xE0000000  returns 0x00 (0000ms, 0207ms total)
T2D20 000:208 JLINK_GetDebugInfo(0x105 = JLINKARM_DEBUG_INFO_DWT_ADDR_INDEX) -- Value=0xE0001000  returns 0x00 (0000ms, 0207ms total)
T2D20 000:208 JLINK_GetDebugInfo(0x106 = JLINKARM_DEBUG_INFO_FPB_ADDR_INDEX) -- Value=0xE0002000  returns 0x00 (0000ms, 0207ms total)
T2D20 000:208 JLINK_GetDebugInfo(0x107 = JLINKARM_DEBUG_INFO_NVIC_ADDR_INDEX) -- Value=0xE000E000  returns 0x00 (0000ms, 0207ms total)
T2D20 000:208 JLINK_GetDebugInfo(0x10C = JLINKARM_DEBUG_INFO_DBG_ADDR_INDEX) -- Value=0xE000EDF0  returns 0x00 (0001ms, 0208ms total)
T2D20 000:209 JLINK_ReadMemU32(0xE000EF40, 0x0001 Items, ...) -- CPU_ReadMem(4 bytes @ 0xE000EF40) - Data: 21 00 11 10  returns 0x01 (0000ms, 0208ms total)
T2D20 000:209 JLINK_ReadMemU32(0xE000EF44, 0x0001 Items, ...) -- CPU_ReadMem(4 bytes @ 0xE000EF44) - Data: 11 00 00 11  returns 0x01 (0000ms, 0208ms total)
T2D20 000:209 JLINK_ReadMemU32(0xE000ED00, 0x0001 Items, ...) -- CPU_ReadMem(4 bytes @ 0xE000ED00) - Data: 41 C2 0F 41  returns 0x01 (0001ms, 0209ms total)
T2D20 000:210 JLINK_GetDebugInfo(0x10F = JLINKARM_DEBUG_INFO_HAS_CORTEX_M_SECURITY_EXT_INDEX) -- Value=0x00000000  returns 0x00 (0000ms, 0209ms total)
T2D20 000:210 JLINK_SetResetType(JLINKARM_CM3_RESET_TYPE_NORMAL)  returns JLINKARM_CM3_RESET_TYPE_NORMAL (0000ms, 0209ms total)
T2D20 000:210 JLINK_Reset() -- CPU is running -- CPU_WriteMem(4 bytes @ 0xE000EDF0) -- CPU is running -- CPU_WriteMem(4 bytes @ 0xE000EDFC)Setting AIRCR.SYSRESETREQ -- CPU is running -- CPU_WriteMem(4 bytes @ 0xE000ED0C) -- CPU_ReadMem(4 bytes @ 0xE000ED0C) -- CPU_ReadMem(4 bytes @ 0xE000EDF0) -- CPU_ReadMem(4 bytes @ 0xE000EDF0) -- CPU_ReadMem(4 bytes @ 0xE000EDF0) -- CPU is running -- CPU_WriteMem(4 bytes @ 0xE000EDF0) -- CPU is running -- CPU_WriteMem(4 bytes @ 0xE000EDFC)
 -- CPU_ReadMem(4 bytes @ 0xE000EDF0) >0x80 JTAG> >0x40 JTAG> >0x30 JTAG> >0x40 JTAG> >0x50 JTAG> >0x40 JTAG> -- CPU_WriteMem(4 bytes @ 0xE000EDFC) -- CPU_WriteMem(4 bytes @ 0xE0001028) -- CPU_WriteMem(4 bytes @ 0xE0001038) -- CPU_WriteMem(4 bytes @ 0xE0001048) -- CPU_WriteMem(4 bytes @ 0xE0001058) -- CPU_WriteMem(4 bytes @ 0xE0002000) -- CPU_ReadMem(4 bytes @ 0xE000EDFC) -- CPU_ReadMem(4 bytes @ 0xE0001000) (0069ms, 0278ms total)
T2D20 000:279 JLINK_ReadReg(R15 (PC))  returns 0x08000E7C (0000ms, 0278ms total)
T2D20 000:279 JLINK_ReadReg(XPSR)  returns 0x01000000 (0000ms, 0278ms total)
T2D20 000:279 JLINK_Halt()  returns 0x00 (0001ms, 0279ms total)
T2D20 000:280 JLINK_ReadMemU32(0xE000EDF0, 0x0001 Items, ...) -- CPU_ReadMem(4 bytes @ 0xE000EDF0) - Data: 03 00 03 00  returns 0x01 (0000ms, 0279ms total)
T2D20 000:280 JLINK_WriteU32(0xE000EDF0, 0xA05F0003) -- CPU_WriteMem(4 bytes @ 0xE000EDF0)  returns 0x00 (0000ms, 0279ms total)
T2D20 000:280 JLINK_WriteU32(0xE000EDFC, 0x01000000) -- CPU_WriteMem(4 bytes @ 0xE000EDFC)  returns 0x00 (0001ms, 0280ms total)
T2D20 000:281 JLINK_GetHWStatus(...)  returns 0x00 (0000ms, 0280ms total)
T2D20 000:281 JLINK_GetNumBPUnits(Type = 0xFFFFFF00)  returns 0x06 (0000ms, 0280ms total)
T2D20 000:281 JLINK_GetNumBPUnits(Type = 0xF0)  returns 0x2000 (0000ms, 0280ms total)
T2D20 000:281 JLINK_GetNumWPUnits()  returns 0x04 (0000ms, 0280ms total)
T2D20 000:281 JLINK_GetSpeed()  returns 0x1388 (0000ms, 0280ms total)
T2D20 000:281 JLINK_ReadMemU32(0xE000E004, 0x0001 Items, ...) -- CPU_ReadMem(4 bytes @ 0xE000E004) - Data: 02 00 00 00  returns 0x01 (0001ms, 0281ms total)
T2D20 000:282 JLINK_ReadMemU32(0xE000E004, 0x0001 Items, ...) -- CPU_ReadMem(4 bytes @ 0xE000E004) - Data: 02 00 00 00  returns 0x01 (0000ms, 0281ms total)
T2D20 000:282 JLINK_WriteMemEx(0xE0001000, 0x001C Bytes, ..., Flags = 0x02000004) - Data: 01 00 00 00 00 00 00 00 00 00 00 00 00 00 00 00 ... -- CPU_WriteMem(28 bytes @ 0xE0001000)  returns 0x1C (0001ms, 0282ms total)
T2D20 000:283 JLINK_ReadReg(R15 (PC))  returns 0x08000E7C (0000ms, 0282ms total)
T2D20 000:283 JLINK_ReadReg(XPSR)  returns 0x01000000 (0000ms, 0282ms total)
T2D20 000:387 JLINK_SetResetType(JLINKARM_CM3_RESET_TYPE_NORMAL)  returns JLINKARM_CM3_RESET_TYPE_NORMAL (0000ms, 0282ms total)
T2D20 000:387 JLINK_Reset() -- CPU_WriteMem(4 bytes @ 0xE000EDF0) -- CPU_WriteMem(4 bytes @ 0xE000EDFC)Setting AIRCR.SYSRESETREQ -- CPU_WriteMem(4 bytes @ 0xE000ED0C) -- CPU_ReadMem(4 bytes @ 0xE000ED0C) -- CPU_ReadMem(4 bytes @ 0xE000EDF0) -- CPU_ReadMem(4 bytes @ 0xE000EDF0) -- CPU_ReadMem(4 bytes @ 0xE000EDF0) -- CPU_WriteMem(4 bytes @ 0xE000EDF0) -- CPU_WriteMem(4 bytes @ 0xE000EDFC) -- CPU_ReadMem(4 bytes @ 0xE000EDF0) >0x80 JTAG> >0x40 JTAG> >0x30 JTAG> >0x40 JTAG> >0x50 JTAG> >0x40 JTAG>
 -- CPU_WriteMem(4 bytes @ 0xE000EDFC) -- CPU_WriteMem(4 bytes @ 0xE0001028) -- CPU_WriteMem(4 bytes @ 0xE0001038) -- CPU_WriteMem(4 bytes @ 0xE0001048) -- CPU_WriteMem(4 bytes @ 0xE0001058) -- CPU_WriteMem(4 bytes @ 0xE0002000) -- CPU_ReadMem(4 bytes @ 0xE000EDFC) -- CPU_ReadMem(4 bytes @ 0xE0001000) (0071ms, 0353ms total)
T2D20 000:458 JLINK_ReadReg(R15 (PC))  returns 0x08000E7C (0000ms, 0353ms total)
T2D20 000:458 JLINK_ReadReg(XPSR)  returns 0x01000000 (0000ms, 0353ms total)
T2D20 000:459 JLINK_ReadMemEx(0x08000D7C, 0x003C Bytes, ..., Flags = 0x02000000) -- CPU_ReadMem(128 bytes @ 0x08000D40) -- Updating C cache (128 bytes @ 0x08000D40) -- Read from C cache (60 bytes @ 0x08000D7C) - Data: 00 BF 00 BF 00 BF 00 BF 00 BF 00 BF 00 BF 00 BF ...  returns 0x3C (0001ms, 0354ms total)
T2D20 000:460 JLINK_ReadMemEx(0x08000DB8, 0x003C Bytes, ..., Flags = 0x02000000) -- CPU_ReadMem(64 bytes @ 0x08000DC0) -- Updating C cache (64 bytes @ 0x08000DC0) -- Read from C cache (60 bytes @ 0x08000DB8) - Data: 00 BF 00 BF 00 BF 00 BF 2D 49 2C 31 09 68 A0 F1 ...  returns 0x3C (0001ms, 0355ms total)
T2D20 000:461 JLINK_ReadMemEx(0x08000DF4, 0x003C Bytes, ..., Flags = 0x02000000) -- CPU_ReadMem(64 bytes @ 0x08000E00) -- Updating C cache (64 bytes @ 0x08000E00) -- Read from C cache (60 bytes @ 0x08000DF4) - Data: 00 BF 00 BF 00 BF 00 BF 00 BF 00 BF 00 BF 00 BF ...  returns 0x3C (0001ms, 0356ms total)
T2D20 000:462 JLINK_ReadMemEx(0x08000E30, 0x003C Bytes, ..., Flags = 0x02000000) -- CPU_ReadMem(64 bytes @ 0x08000E40) -- Updating C cache (64 bytes @ 0x08000E40) -- Read from C cache (60 bytes @ 0x08000E30) - Data: 11 4A 38 32 11 60 1C E0 00 BF 00 BF 00 BF 00 BF ...  returns 0x3C (0001ms, 0357ms total)
T2D20 000:463 JLINK_ReadMemEx(0x08000E6C, 0x003C Bytes, ..., Flags = 0x02000000) -- CPU_ReadMem(64 bytes @ 0x08000E80) -- Updating C cache (64 bytes @ 0x08000E80) -- Read from C cache (60 bytes @ 0x08000E6C) - Data: 3C 32 11 60 00 BF 00 BF 70 47 00 00 08 38 02 40 ...  returns 0x3C (0001ms, 0358ms total)
T2D20 003:446 JLINK_ReadReg(R0)  returns 0x00000000 (0001ms, 0359ms total)
T2D20 003:447 JLINK_ReadReg(R1)  returns 0x00000000 (0000ms, 0359ms total)
T2D20 003:447 JLINK_ReadReg(R2)  returns 0x00000000 (0000ms, 0359ms total)
T2D20 003:447 JLINK_ReadReg(R3)  returns 0x00000000 (0000ms, 0359ms total)
T2D20 003:447 JLINK_ReadReg(R4)  returns 0x00000000 (0000ms, 0359ms total)
T2D20 003:447 JLINK_ReadReg(R5)  returns 0x00000000 (0000ms, 0359ms total)
T2D20 003:447 JLINK_ReadReg(R6)  returns 0x00000000 (0000ms, 0359ms total)
T2D20 003:447 JLINK_ReadReg(R7)  returns 0x00000000 (0000ms, 0359ms total)
T2D20 003:448 JLINK_ReadReg(R8)  returns 0x00000000 (0000ms, 0360ms total)
T2D20 003:448 JLINK_ReadReg(R9)  returns 0x00000000 (0000ms, 0360ms total)
T2D20 003:448 JLINK_ReadReg(R10)  returns 0x00000000 (0000ms, 0360ms total)
T2D20 003:448 JLINK_ReadReg(R11)  returns 0x00000000 (0000ms, 0360ms total)
T2D20 003:448 JLINK_ReadReg(R12)  returns 0x00000000 (0000ms, 0360ms total)
T2D20 003:448 JLINK_ReadReg(R13 (SP))  returns 0x200031E0 (0000ms, 0360ms total)
T2D20 003:448 JLINK_ReadReg(R14)  returns 0xFFFFFFFF (0000ms, 0360ms total)
T2D20 003:448 JLINK_ReadReg(R15 (PC))  returns 0x08000E7C (0000ms, 0360ms total)
T2D20 003:448 JLINK_ReadReg(XPSR)  returns 0x01000000 (0000ms, 0360ms total)
T2D20 003:448 JLINK_ReadReg(MSP)  returns 0x200031E0 (0000ms, 0360ms total)
T2D20 003:448 JLINK_ReadReg(PSP)  returns 0x00000000 (0000ms, 0360ms total)
T2D20 003:448 JLINK_ReadReg(CFBP)  returns 0x00000000 (0001ms, 0361ms total)
T2D20 003:449 JLINK_ReadReg(FPSCR)  returns 0x00000000 (0002ms, 0363ms total)
T2D20 003:451 JLINK_ReadReg(FPS0)  returns 0x00000000 (0000ms, 0363ms total)
T2D20 003:451 JLINK_ReadReg(FPS1)  returns 0x00000000 (0000ms, 0363ms total)
T2D20 003:451 JLINK_ReadReg(FPS2)  returns 0x00000000 (0001ms, 0364ms total)
T2D20 003:452 JLINK_ReadReg(FPS3)  returns 0x00000000 (0000ms, 0364ms total)
T2D20 003:452 JLINK_ReadReg(FPS4)  returns 0x00000000 (0000ms, 0364ms total)
T2D20 003:452 JLINK_ReadReg(FPS5)  returns 0x00000000 (0000ms, 0364ms total)
T2D20 003:452 JLINK_ReadReg(FPS6)  returns 0x00000000 (0000ms, 0364ms total)
T2D20 003:452 JLINK_ReadReg(FPS7)  returns 0x00000000 (0000ms, 0364ms total)
T2D20 003:452 JLINK_ReadReg(FPS8)  returns 0x00000000 (0000ms, 0364ms total)
T2D20 003:452 JLINK_ReadReg(FPS9)  returns 0x00000000 (0000ms, 0364ms total)
T2D20 003:452 JLINK_ReadReg(FPS10)  returns 0x00000000 (0000ms, 0364ms total)
T2D20 003:452 JLINK_ReadReg(FPS11)  returns 0x00000000 (0000ms, 0364ms total)
T2D20 003:452 JLINK_ReadReg(FPS12)  returns 0x00000000 (0000ms, 0364ms total)
T2D20 003:452 JLINK_ReadReg(FPS13)  returns 0x00000000 (0000ms, 0364ms total)
T2D20 003:452 JLINK_ReadReg(FPS14)  returns 0x00000000 (0000ms, 0364ms total)
T2D20 003:452 JLINK_ReadReg(FPS15)  returns 0x00000000 (0001ms, 0365ms total)
T2D20 003:453 JLINK_ReadReg(FPS16)  returns 0x00000000 (0000ms, 0365ms total)
T2D20 003:453 JLINK_ReadReg(FPS17)  returns 0x00000000 (0000ms, 0365ms total)
T2D20 003:453 JLINK_ReadReg(FPS18)  returns 0x00000000 (0000ms, 0365ms total)
T2D20 003:453 JLINK_ReadReg(FPS19)  returns 0x00000000 (0000ms, 0365ms total)
T2D20 003:453 JLINK_ReadReg(FPS20)  returns 0x00000000 (0000ms, 0365ms total)
T2D20 003:453 JLINK_ReadReg(FPS21)  returns 0x00000000 (0000ms, 0365ms total)
T2D20 003:453 JLINK_ReadReg(FPS22)  returns 0x00000000 (0000ms, 0365ms total)
T2D20 003:453 JLINK_ReadReg(FPS23)  returns 0x00000000 (0000ms, 0365ms total)
T2D20 003:453 JLINK_ReadReg(FPS24)  returns 0x00000000 (0000ms, 0365ms total)
T2D20 003:453 JLINK_ReadReg(FPS25)  returns 0x00000000 (0000ms, 0365ms total)
T2D20 003:453 JLINK_ReadReg(FPS26)  returns 0x00000000 (0000ms, 0365ms total)
T2D20 003:453 JLINK_ReadReg(FPS27)  returns 0x00000000 (0001ms, 0366ms total)
T2D20 003:454 JLINK_ReadReg(FPS28)  returns 0x00000000 (0000ms, 0366ms total)
T2D20 003:454 JLINK_ReadReg(FPS29)  returns 0x00000000 (0000ms, 0366ms total)
T2D20 003:454 JLINK_ReadReg(FPS30)  returns 0x00000000 (0000ms, 0366ms total)
T2D20 003:454 JLINK_ReadReg(FPS31)  returns 0x00000000 (0000ms, 0366ms total)
T13B8 003:625 JLINK_ReadMemEx(0x08000E7C, 0x0002 Bytes, ..., Flags = 0x02000000) -- Read from C cache (2 bytes @ 0x08000E7C) - Data: DF F8  returns 0x02 (0000ms, 0366ms total)
T13B8 003:625 JLINK_SetBPEx(Addr = 0x08000252, Type = 0xFFFFFFF2)  returns 0x00000001 (0000ms, 0366ms total)
T13B8 003:625 JLINK_SetBPEx(Addr = 0x080001C4, Type = 0xFFFFFFF2)  returns 0x00000002 (0000ms, 0366ms total)
T13B8 003:626 JLINK_Go() -- CPU_ReadMem(4 bytes @ 0xE0001000) -- CPU_WriteMem(4 bytes @ 0xE0002008) -- CPU_WriteMem(4 bytes @ 0xE000200C) -- CPU_WriteMem(4 bytes @ 0xE0002010) -- CPU_WriteMem(4 bytes @ 0xE0002014) -- CPU_WriteMem(4 bytes @ 0xE0002018) -- CPU_WriteMem(4 bytes @ 0xE000201C) -- CPU_WriteMem(4 bytes @ 0xE0001004) (0002ms, 0368ms total)
T13B8 003:728 JLINK_IsHalted()  returns TRUE (0002ms, 0370ms total)
T13B8 003:730 JLINK_Halt()  returns 0x00 (0000ms, 0368ms total)
T13B8 003:730 JLINK_IsHalted()  returns TRUE (0000ms, 0368ms total)
T13B8 003:730 JLINK_IsHalted()  returns TRUE (0000ms, 0368ms total)
T13B8 003:730 JLINK_IsHalted()  returns TRUE (0000ms, 0368ms total)
T13B8 003:730 JLINK_ReadReg(R15 (PC))  returns 0x08000252 (0000ms, 0368ms total)
T13B8 003:730 JLINK_ReadReg(XPSR)  returns 0x61000000 (0000ms, 0368ms total)
T13B8 003:730 JLINK_ClrBPEx(BPHandle = 0x00000001)  returns 0x00 (0000ms, 0368ms total)
T13B8 003:731 JLINK_ClrBPEx(BPHandle = 0x00000002)  returns 0x00 (0000ms, 0369ms total)
T13B8 003:731 JLINK_ReadMemU32(0xE000ED30, 0x0001 Items, ...) -- CPU_ReadMem(4 bytes @ 0xE000ED30) - Data: 02 00 00 00  returns 0x01 (0000ms, 0369ms total)
T13B8 003:731 JLINK_ReadMemU32(0xE0001028, 0x0001 Items, ...) -- CPU_ReadMem(4 bytes @ 0xE0001028) - Data: 00 00 00 00  returns 0x01 (0001ms, 0370ms total)
T13B8 003:732 JLINK_ReadMemU32(0xE0001038, 0x0001 Items, ...) -- CPU_ReadMem(4 bytes @ 0xE0001038) - Data: 00 02 00 00  returns 0x01 (0000ms, 0370ms total)
T13B8 003:732 JLINK_ReadMemU32(0xE0001048, 0x0001 Items, ...) -- CPU_ReadMem(4 bytes @ 0xE0001048) - Data: 00 00 00 00  returns 0x01 (0000ms, 0370ms total)
T13B8 003:733 JLINK_ReadMemU32(0xE0001058, 0x0001 Items, ...) -- CPU_ReadMem(4 bytes @ 0xE0001058) - Data: 00 00 00 00  returns 0x01 (0000ms, 0370ms total)
T13B8 003:733 JLINK_ReadReg(R0)  returns 0x08000253 (0000ms, 0370ms total)
T13B8 003:733 JLINK_ReadReg(R1)  returns 0x200031E0 (0000ms, 0370ms total)
T13B8 003:733 JLINK_ReadReg(R2)  returns 0x00000000 (0000ms, 0370ms total)
T13B8 003:733 JLINK_ReadReg(R3)  returns 0x08009A01 (0000ms, 0370ms total)
T13B8 003:733 JLINK_ReadReg(R4)  returns 0x08009DFC (0000ms, 0370ms total)
T13B8 003:733 JLINK_ReadReg(R5)  returns 0x08009DFC (0000ms, 0370ms total)
T13B8 003:733 JLINK_ReadReg(R6)  returns 0x00000000 (0000ms, 0370ms total)
T13B8 003:734 JLINK_ReadReg(R7)  returns 0x00000000 (0000ms, 0371ms total)
T13B8 003:734 JLINK_ReadReg(R8)  returns 0x00000000 (0000ms, 0371ms total)
T13B8 003:734 JLINK_ReadReg(R9)  returns 0x00000000 (0000ms, 0371ms total)
T13B8 003:734 JLINK_ReadReg(R10)  returns 0x00000000 (0000ms, 0371ms total)
T13B8 003:734 JLINK_ReadReg(R11)  returns 0x00000000 (0000ms, 0371ms total)
T13B8 003:734 JLINK_ReadReg(R12)  returns 0x00000000 (0000ms, 0371ms total)
T13B8 003:734 JLINK_ReadReg(R13 (SP))  returns 0x200031E0 (0000ms, 0371ms total)
T13B8 003:734 JLINK_ReadReg(R14)  returns 0x080098CD (0000ms, 0371ms total)
T13B8 003:734 JLINK_ReadReg(R15 (PC))  returns 0x08000252 (0000ms, 0371ms total)
T13B8 003:734 JLINK_ReadReg(XPSR)  returns 0x61000000 (0000ms, 0371ms total)
T13B8 003:734 JLINK_ReadReg(MSP)  returns 0x200031E0 (0000ms, 0371ms total)
T13B8 003:734 JLINK_ReadReg(PSP)  returns 0x00000000 (0000ms, 0371ms total)
T13B8 003:734 JLINK_ReadReg(CFBP)  returns 0x00000000 (0000ms, 0371ms total)
T13B8 003:735 JLINK_ReadReg(FPSCR)  returns 0x00000000 (0002ms, 0374ms total)
T13B8 003:737 JLINK_ReadReg(FPS0)  returns 0x00000000 (0000ms, 0374ms total)
T13B8 003:737 JLINK_ReadReg(FPS1)  returns 0x00000000 (0001ms, 0375ms total)
T13B8 003:738 JLINK_ReadReg(FPS2)  returns 0x00000000 (0000ms, 0375ms total)
T13B8 003:738 JLINK_ReadReg(FPS3)  returns 0x00000000 (0000ms, 0375ms total)
T13B8 003:738 JLINK_ReadReg(FPS4)  returns 0x00000000 (0000ms, 0375ms total)
T13B8 003:738 JLINK_ReadReg(FPS5)  returns 0x00000000 (0000ms, 0375ms total)
T13B8 003:738 JLINK_ReadReg(FPS6)  returns 0x00000000 (0000ms, 0375ms total)
T13B8 003:738 JLINK_ReadReg(FPS7)  returns 0x00000000 (0000ms, 0375ms total)
T13B8 003:738 JLINK_ReadReg(FPS8)  returns 0x00000000 (0000ms, 0375ms total)
T13B8 003:738 JLINK_ReadReg(FPS9)  returns 0x00000000 (0000ms, 0375ms total)
T13B8 003:738 JLINK_ReadReg(FPS10)  returns 0x00000000 (0000ms, 0375ms total)
T13B8 003:738 JLINK_ReadReg(FPS11)  returns 0x00000000 (0000ms, 0375ms total)
T13B8 003:738 JLINK_ReadReg(FPS12)  returns 0x00000000 (0000ms, 0375ms total)
T13B8 003:738 JLINK_ReadReg(FPS13)  returns 0x00000000 (0000ms, 0375ms total)
T13B8 003:738 JLINK_ReadReg(FPS14)  returns 0x00000000 (0001ms, 0376ms total)
T13B8 003:739 JLINK_ReadReg(FPS15)  returns 0x00000000 (0000ms, 0376ms total)
T13B8 003:739 JLINK_ReadReg(FPS16)  returns 0x00000000 (0000ms, 0376ms total)
T13B8 003:739 JLINK_ReadReg(FPS17)  returns 0x00000000 (0000ms, 0376ms total)
T13B8 003:739 JLINK_ReadReg(FPS18)  returns 0x00000000 (0000ms, 0376ms total)
T13B8 003:739 JLINK_ReadReg(FPS19)  returns 0x00000000 (0000ms, 0376ms total)
T13B8 003:739 JLINK_ReadReg(FPS20)  returns 0x00000000 (0000ms, 0376ms total)
T13B8 003:739 JLINK_ReadReg(FPS21)  returns 0x00000000 (0000ms, 0376ms total)
T13B8 003:739 JLINK_ReadReg(FPS22)  returns 0x00000000 (0000ms, 0376ms total)
T13B8 003:739 JLINK_ReadReg(FPS23)  returns 0x00000000 (0000ms, 0376ms total)
T13B8 003:739 JLINK_ReadReg(FPS24)  returns 0x00000000 (0000ms, 0376ms total)
T13B8 003:739 JLINK_ReadReg(FPS25)  returns 0x00000000 (0000ms, 0376ms total)
T13B8 003:739 JLINK_ReadReg(FPS26)  returns 0x00000000 (0000ms, 0376ms total)
T13B8 003:739 JLINK_ReadReg(FPS27)  returns 0x00000000 (0001ms, 0377ms total)
T13B8 003:740 JLINK_ReadReg(FPS28)  returns 0x00000000 (0000ms, 0377ms total)
T13B8 003:740 JLINK_ReadReg(FPS29)  returns 0x00000000 (0000ms, 0377ms total)
T13B8 003:740 JLINK_ReadReg(FPS30)  returns 0x00000000 (0000ms, 0377ms total)
T13B8 003:740 JLINK_ReadReg(FPS31)  returns 0x00000000 (0000ms, 0377ms total)
T2D20 003:744 JLINK_ReadMemEx(0x200031D8, 0x0002 Bytes, ..., Flags = 0x02000000) -- CPU_ReadMem(64 bytes @ 0x200031C0) -- Updating C cache (64 bytes @ 0x200031C0) -- Read from C cache (2 bytes @ 0x200031D8) - Data: 00 00  returns 0x02 (0002ms, 0379ms total)
T2D20 003:747 JLINK_ReadMemU32(0xE0001004, 0x0001 Items, ...) -- CPU_ReadMem(4 bytes @ 0xE0001004) - Data: AC 4B 00 00  returns 0x01 (0001ms, 0380ms total)
T2D20 003:751 JLINK_ReadMemEx(0x0800023E, 0x0002 Bytes, ..., Flags = 0x02000000) -- CPU_ReadMem(64 bytes @ 0x08000200) -- Updating C cache (64 bytes @ 0x08000200) -- Read from C cache (2 bytes @ 0x0800023E) - Data: 02 A8  returns 0x02 (0001ms, 0381ms total)
T2D20 003:752 JLINK_ReadMemEx(0x08000240, 0x003C Bytes, ..., Flags = 0x02000000) -- CPU_ReadMem(64 bytes @ 0x08000240) -- Updating C cache (64 bytes @ 0x08000240) -- Read from C cache (60 bytes @ 0x08000240) - Data: 00 21 64 23 02 22 CD E9 00 10 08 46 08 F0 76 F9 ...  returns 0x3C (0001ms, 0382ms total)
T13B8 007:687 JLINK_ReadMemEx(0x08000252, 0x0002 Bytes, ..., Flags = 0x02000000) -- Read from C cache (2 bytes @ 0x08000252) - Data: 00 B5  returns 0x02 (0000ms, 0382ms total)
T13B8 007:687 JLINK_Step() -- Read from C cache (2 bytes @ 0x08000252) -- CPU_ReadMem(4 bytes @ 0xE000ED18) -- CPU_WriteMem(4 bytes @ 0xE000ED18) -- CPU_ReadMem(4 bytes @ 0xE000ED18) -- CPU_WriteMem(4 bytes @ 0xE000ED18) -- CPU_WriteMem(4 bytes @ 0x200031DC) -- Simulated  returns 0x00 (0002ms, 0384ms total)
T13B8 007:689 JLINK_ReadReg(R15 (PC))  returns 0x08000254 (0000ms, 0384ms total)
T13B8 007:689 JLINK_ReadReg(XPSR)  returns 0x61000000 (0000ms, 0384ms total)
T13B8 007:689 JLINK_Step() -- Read from C cache (2 bytes @ 0x08000254) -- Simulated  returns 0x00 (0000ms, 0384ms total)
T13B8 007:689 JLINK_ReadReg(R15 (PC))  returns 0x08000256 (0000ms, 0384ms total)
T13B8 007:689 JLINK_ReadReg(XPSR)  returns 0x61000000 (0001ms, 0385ms total)
T13B8 007:690 JLINK_ReadReg(R0)  returns 0x08000253 (0000ms, 0385ms total)
T13B8 007:690 JLINK_ReadReg(R1)  returns 0x200031E0 (0000ms, 0385ms total)
T13B8 007:690 JLINK_ReadReg(R2)  returns 0x00000000 (0000ms, 0385ms total)
T13B8 007:690 JLINK_ReadReg(R3)  returns 0x08009A01 (0000ms, 0385ms total)
T13B8 007:690 JLINK_ReadReg(R4)  returns 0x08009DFC (0000ms, 0385ms total)
T13B8 007:690 JLINK_ReadReg(R5)  returns 0x08009DFC (0000ms, 0385ms total)
T13B8 007:690 JLINK_ReadReg(R6)  returns 0x00000000 (0000ms, 0385ms total)
T13B8 007:690 JLINK_ReadReg(R7)  returns 0x00000000 (0000ms, 0385ms total)
T13B8 007:690 JLINK_ReadReg(R8)  returns 0x00000000 (0000ms, 0385ms total)
T13B8 007:690 JLINK_ReadReg(R9)  returns 0x00000000 (0000ms, 0385ms total)
T13B8 007:690 JLINK_ReadReg(R10)  returns 0x00000000 (0000ms, 0385ms total)
T13B8 007:690 JLINK_ReadReg(R11)  returns 0x00000000 (0001ms, 0386ms total)
T13B8 007:691 JLINK_ReadReg(R12)  returns 0x00000000 (0000ms, 0386ms total)
T13B8 007:691 JLINK_ReadReg(R13 (SP))  returns 0x200031B0 (0000ms, 0386ms total)
T13B8 007:691 JLINK_ReadReg(R14)  returns 0x080098CD (0000ms, 0386ms total)
T13B8 007:691 JLINK_ReadReg(R15 (PC))  returns 0x08000256 (0000ms, 0386ms total)
T13B8 007:691 JLINK_ReadReg(XPSR)  returns 0x61000000 (0000ms, 0386ms total)
T13B8 007:691 JLINK_ReadReg(MSP)  returns 0x200031B0 (0000ms, 0386ms total)
T13B8 007:691 JLINK_ReadReg(PSP)  returns 0x00000000 (0000ms, 0386ms total)
T13B8 007:691 JLINK_ReadReg(CFBP)  returns 0x00000000 (0000ms, 0386ms total)
T13B8 007:691 JLINK_ReadReg(FPSCR)  returns 0x00000000 (0000ms, 0386ms total)
T13B8 007:691 JLINK_ReadReg(FPS0)  returns 0x00000000 (0000ms, 0386ms total)
T13B8 007:691 JLINK_ReadReg(FPS1)  returns 0x00000000 (0000ms, 0386ms total)
T13B8 007:691 JLINK_ReadReg(FPS2)  returns 0x00000000 (0001ms, 0387ms total)
T13B8 007:692 JLINK_ReadReg(FPS3)  returns 0x00000000 (0000ms, 0387ms total)
T13B8 007:692 JLINK_ReadReg(FPS4)  returns 0x00000000 (0000ms, 0387ms total)
T13B8 007:692 JLINK_ReadReg(FPS5)  returns 0x00000000 (0000ms, 0387ms total)
T13B8 007:692 JLINK_ReadReg(FPS6)  returns 0x00000000 (0000ms, 0387ms total)
T13B8 007:692 JLINK_ReadReg(FPS7)  returns 0x00000000 (0000ms, 0387ms total)
T13B8 007:692 JLINK_ReadReg(FPS8)  returns 0x00000000 (0000ms, 0387ms total)
T13B8 007:692 JLINK_ReadReg(FPS9)  returns 0x00000000 (0000ms, 0387ms total)
T13B8 007:692 JLINK_ReadReg(FPS10)  returns 0x00000000 (0000ms, 0387ms total)
T13B8 007:692 JLINK_ReadReg(FPS11)  returns 0x00000000 (0000ms, 0387ms total)
T13B8 007:692 JLINK_ReadReg(FPS12)  returns 0x00000000 (0000ms, 0387ms total)
T13B8 007:692 JLINK_ReadReg(FPS13)  returns 0x00000000 (0000ms, 0387ms total)
T13B8 007:692 JLINK_ReadReg(FPS14)  returns 0x00000000 (0001ms, 0388ms total)
T13B8 007:693 JLINK_ReadReg(FPS15)  returns 0x00000000 (0000ms, 0388ms total)
T13B8 007:693 JLINK_ReadReg(FPS16)  returns 0x00000000 (0000ms, 0388ms total)
T13B8 007:693 JLINK_ReadReg(FPS17)  returns 0x00000000 (0000ms, 0388ms total)
T13B8 007:693 JLINK_ReadReg(FPS18)  returns 0x00000000 (0000ms, 0388ms total)
T13B8 007:693 JLINK_ReadReg(FPS19)  returns 0x00000000 (0000ms, 0388ms total)
T13B8 007:693 JLINK_ReadReg(FPS20)  returns 0x00000000 (0000ms, 0388ms total)
T13B8 007:693 JLINK_ReadReg(FPS21)  returns 0x00000000 (0000ms, 0388ms total)
T13B8 007:693 JLINK_ReadReg(FPS22)  returns 0x00000000 (0000ms, 0388ms total)
T13B8 007:693 JLINK_ReadReg(FPS23)  returns 0x00000000 (0000ms, 0388ms total)
T13B8 007:693 JLINK_ReadReg(FPS24)  returns 0x00000000 (0000ms, 0388ms total)
T13B8 007:693 JLINK_ReadReg(FPS25)  returns 0x00000000 (0000ms, 0388ms total)
T13B8 007:693 JLINK_ReadReg(FPS26)  returns 0x00000000 (0000ms, 0388ms total)
T13B8 007:693 JLINK_ReadReg(FPS27)  returns 0x00000000 (0000ms, 0388ms total)
T13B8 007:693 JLINK_ReadReg(FPS28)  returns 0x00000000 (0000ms, 0388ms total)
T13B8 007:693 JLINK_ReadReg(FPS29)  returns 0x00000000 (0001ms, 0389ms total)
T13B8 007:694 JLINK_ReadReg(FPS30)  returns 0x00000000 (0000ms, 0389ms total)
T13B8 007:694 JLINK_ReadReg(FPS31)  returns 0x00000000 (0000ms, 0389ms total)
T2D20 007:694 JLINK_ReadMemEx(0x200031DC, 0x0004 Bytes, ..., Flags = 0x02000000) -- CPU_ReadMem(64 bytes @ 0x200031C0) -- Updating C cache (64 bytes @ 0x200031C0) -- Read from C cache (4 bytes @ 0x200031DC) - Data: CD 98 00 08  returns 0x04 (0001ms, 0390ms total)
T2D20 007:695 JLINK_ReadMemEx(0x200031D8, 0x0002 Bytes, ..., Flags = 0x02000000) -- Read from C cache (2 bytes @ 0x200031D8) - Data: 00 00  returns 0x02 (0000ms, 0390ms total)
T2D20 007:695 JLINK_ReadMemU32(0xE0001004, 0x0001 Items, ...) - Data: AF 4B 00 00  returns 0x01 (0000ms, 0390ms total)
T2D20 007:699 JLINK_ReadMemEx(0x08000252, 0x0002 Bytes, ..., Flags = 0x02000000) -- Read from C cache (2 bytes @ 0x08000252) - Data: 00 B5  returns 0x02 (0000ms, 0390ms total)
T2D20 007:699 JLINK_ReadMemEx(0x08000254, 0x003C Bytes, ..., Flags = 0x02000000) -- CPU_ReadMem(64 bytes @ 0x08000280) -- Updating C cache (64 bytes @ 0x08000280) -- Read from C cache (60 bytes @ 0x08000254) - Data: 8B B0 00 F0 52 F9 00 F0 4F FE 01 F0 F4 FC 01 F0 ...  returns 0x3C (0001ms, 0391ms total)
T13B8 008:356 JLINK_ReadMemEx(0x08000256, 0x0002 Bytes, ..., Flags = 0x02000000) -- Read from C cache (2 bytes @ 0x08000256) - Data: 00 F0  returns 0x02 (0000ms, 0391ms total)
T13B8 008:356 JLINK_SetBPEx(Addr = 0x0800025A, Type = 0xFFFFFFF2)  returns 0x00000003 (0001ms, 0392ms total)
T13B8 008:357 JLINK_SetBPEx(Addr = 0x080001C4, Type = 0xFFFFFFF2)  returns 0x00000004 (0000ms, 0392ms total)
T13B8 008:357 JLINK_Go() -- CPU_ReadMem(4 bytes @ 0xE0001000) -- CPU_WriteMem(4 bytes @ 0xE0002008) -- CPU_WriteMem(4 bytes @ 0xE0001004) (0002ms, 0394ms total)
T13B8 008:460 JLINK_IsHalted()  returns TRUE (0001ms, 0395ms total)
T13B8 008:461 JLINK_Halt()  returns 0x00 (0001ms, 0395ms total)
T13B8 008:462 JLINK_IsHalted()  returns TRUE (0000ms, 0395ms total)
T13B8 008:462 JLINK_IsHalted()  returns TRUE (0000ms, 0395ms total)
T13B8 008:462 JLINK_IsHalted()  returns TRUE (0000ms, 0395ms total)
T13B8 008:462 JLINK_ReadReg(R15 (PC))  returns 0x0800025A (0000ms, 0395ms total)
T13B8 008:462 JLINK_ReadReg(XPSR)  returns 0x61000000 (0000ms, 0395ms total)
T13B8 008:462 JLINK_ClrBPEx(BPHandle = 0x00000003)  returns 0x00 (0000ms, 0395ms total)
T13B8 008:462 JLINK_ClrBPEx(BPHandle = 0x00000004)  returns 0x00 (0000ms, 0395ms total)
T13B8 008:462 JLINK_ReadMemU32(0xE000ED30, 0x0001 Items, ...) -- CPU_ReadMem(4 bytes @ 0xE000ED30) - Data: 02 00 00 00  returns 0x01 (0000ms, 0395ms total)
T13B8 008:462 JLINK_ReadMemU32(0xE0001028, 0x0001 Items, ...) -- CPU_ReadMem(4 bytes @ 0xE0001028) - Data: 00 00 00 00  returns 0x01 (0001ms, 0396ms total)
T13B8 008:463 JLINK_ReadMemU32(0xE0001038, 0x0001 Items, ...) -- CPU_ReadMem(4 bytes @ 0xE0001038) - Data: 00 02 00 00  returns 0x01 (0000ms, 0396ms total)
T13B8 008:463 JLINK_ReadMemU32(0xE0001048, 0x0001 Items, ...) -- CPU_ReadMem(4 bytes @ 0xE0001048) - Data: 00 00 00 00  returns 0x01 (0001ms, 0397ms total)
T13B8 008:464 JLINK_ReadMemU32(0xE0001058, 0x0001 Items, ...) -- CPU_ReadMem(4 bytes @ 0xE0001058) - Data: 00 00 00 00  returns 0x01 (0000ms, 0397ms total)
T13B8 008:464 JLINK_ReadReg(R0)  returns 0x08000253 (0000ms, 0397ms total)
T13B8 008:464 JLINK_ReadReg(R1)  returns 0x200031E0 (0000ms, 0397ms total)
T13B8 008:464 JLINK_ReadReg(R2)  returns 0x00000000 (0000ms, 0397ms total)
T13B8 008:464 JLINK_ReadReg(R3)  returns 0x08009A01 (0000ms, 0397ms total)
T13B8 008:464 JLINK_ReadReg(R4)  returns 0x08009DFC (0000ms, 0397ms total)
T13B8 008:464 JLINK_ReadReg(R5)  returns 0x08009DFC (0000ms, 0397ms total)
T13B8 008:464 JLINK_ReadReg(R6)  returns 0x00000000 (0000ms, 0397ms total)
T13B8 008:464 JLINK_ReadReg(R7)  returns 0x00000000 (0001ms, 0398ms total)
T13B8 008:465 JLINK_ReadReg(R8)  returns 0x00000000 (0000ms, 0398ms total)
T13B8 008:465 JLINK_ReadReg(R9)  returns 0x00000000 (0000ms, 0398ms total)
T13B8 008:465 JLINK_ReadReg(R10)  returns 0x00000000 (0000ms, 0398ms total)
T13B8 008:465 JLINK_ReadReg(R11)  returns 0x00000000 (0000ms, 0398ms total)
T13B8 008:465 JLINK_ReadReg(R12)  returns 0x00000000 (0000ms, 0398ms total)
T13B8 008:465 JLINK_ReadReg(R13 (SP))  returns 0x200031B0 (0000ms, 0398ms total)
T13B8 008:465 JLINK_ReadReg(R14)  returns 0x08000505 (0000ms, 0398ms total)
T13B8 008:465 JLINK_ReadReg(R15 (PC))  returns 0x0800025A (0000ms, 0398ms total)
T13B8 008:465 JLINK_ReadReg(XPSR)  returns 0x61000000 (0000ms, 0398ms total)
T13B8 008:465 JLINK_ReadReg(MSP)  returns 0x200031B0 (0000ms, 0398ms total)
T13B8 008:465 JLINK_ReadReg(PSP)  returns 0x00000000 (0000ms, 0398ms total)
T13B8 008:465 JLINK_ReadReg(CFBP)  returns 0x00000001 (0000ms, 0398ms total)
T13B8 008:465 JLINK_ReadReg(FPSCR)  returns 0x00000000 (0003ms, 0401ms total)
T13B8 008:468 JLINK_ReadReg(FPS0)  returns 0x00000000 (0000ms, 0401ms total)
T13B8 008:468 JLINK_ReadReg(FPS1)  returns 0x00000000 (0000ms, 0401ms total)
T13B8 008:468 JLINK_ReadReg(FPS2)  returns 0x00000000 (0000ms, 0401ms total)
T13B8 008:468 JLINK_ReadReg(FPS3)  returns 0x00000000 (0000ms, 0401ms total)
T13B8 008:468 JLINK_ReadReg(FPS4)  returns 0x00000000 (0000ms, 0401ms total)
T13B8 008:468 JLINK_ReadReg(FPS5)  returns 0x00000000 (0000ms, 0401ms total)
T13B8 008:468 JLINK_ReadReg(FPS6)  returns 0x00000000 (0000ms, 0401ms total)
T13B8 008:468 JLINK_ReadReg(FPS7)  returns 0x00000000 (0000ms, 0401ms total)
T13B8 008:468 JLINK_ReadReg(FPS8)  returns 0x00000000 (0000ms, 0401ms total)
T13B8 008:468 JLINK_ReadReg(FPS9)  returns 0x00000000 (0000ms, 0401ms total)
T13B8 008:468 JLINK_ReadReg(FPS10)  returns 0x00000000 (0000ms, 0401ms total)
T13B8 008:468 JLINK_ReadReg(FPS11)  returns 0x00000000 (0001ms, 0402ms total)
T13B8 008:469 JLINK_ReadReg(FPS12)  returns 0x00000000 (0000ms, 0402ms total)
T13B8 008:469 JLINK_ReadReg(FPS13)  returns 0x00000000 (0000ms, 0402ms total)
T13B8 008:469 JLINK_ReadReg(FPS14)  returns 0x00000000 (0000ms, 0402ms total)
T13B8 008:469 JLINK_ReadReg(FPS15)  returns 0x00000000 (0000ms, 0402ms total)
T13B8 008:469 JLINK_ReadReg(FPS16)  returns 0x00000000 (0000ms, 0402ms total)
T13B8 008:469 JLINK_ReadReg(FPS17)  returns 0x00000000 (0000ms, 0402ms total)
T13B8 008:469 JLINK_ReadReg(FPS18)  returns 0x00000000 (0000ms, 0402ms total)
T13B8 008:469 JLINK_ReadReg(FPS19)  returns 0x00000000 (0000ms, 0402ms total)
T13B8 008:469 JLINK_ReadReg(FPS20)  returns 0x00000000 (0000ms, 0402ms total)
T13B8 008:469 JLINK_ReadReg(FPS21)  returns 0x00000000 (0000ms, 0402ms total)
T13B8 008:469 JLINK_ReadReg(FPS22)  returns 0x00000000 (0000ms, 0402ms total)
T13B8 008:469 JLINK_ReadReg(FPS23)  returns 0x00000000 (0000ms, 0402ms total)
T13B8 008:469 JLINK_ReadReg(FPS24)  returns 0x00000000 (0000ms, 0402ms total)
T13B8 008:469 JLINK_ReadReg(FPS25)  returns 0x00000000 (0000ms, 0402ms total)
T13B8 008:469 JLINK_ReadReg(FPS26)  returns 0x00000000 (0000ms, 0402ms total)
T13B8 008:469 JLINK_ReadReg(FPS27)  returns 0x00000000 (0000ms, 0402ms total)
T13B8 008:469 JLINK_ReadReg(FPS28)  returns 0x00000000 (0000ms, 0402ms total)
T13B8 008:469 JLINK_ReadReg(FPS29)  returns 0x00000000 (0001ms, 0403ms total)
T13B8 008:470 JLINK_ReadReg(FPS30)  returns 0x00000000 (0000ms, 0403ms total)
T13B8 008:470 JLINK_ReadReg(FPS31)  returns 0x00000000 (0000ms, 0403ms total)
T2D20 008:470 JLINK_ReadMemEx(0x200031DC, 0x0004 Bytes, ..., Flags = 0x02000000) -- CPU_ReadMem(64 bytes @ 0x200031C0) -- Updating C cache (64 bytes @ 0x200031C0) -- Read from C cache (4 bytes @ 0x200031DC) - Data: CD 98 00 08  returns 0x04 (0001ms, 0404ms total)
T2D20 008:471 JLINK_ReadMemEx(0x200031D8, 0x0002 Bytes, ..., Flags = 0x02000000) -- Read from C cache (2 bytes @ 0x200031D8) - Data: 00 00  returns 0x02 (0000ms, 0404ms total)
T2D20 008:471 JLINK_ReadMemU32(0xE0001004, 0x0001 Items, ...) -- CPU_ReadMem(4 bytes @ 0xE0001004) - Data: C0 4B 00 00  returns 0x01 (0000ms, 0404ms total)
T2D20 008:477 JLINK_ReadMemEx(0x08000254, 0x003C Bytes, ..., Flags = 0x02000000) -- CPU_ReadMem(128 bytes @ 0x08000240) -- Updating C cache (128 bytes @ 0x08000240) -- Read from C cache (60 bytes @ 0x08000254) - Data: 8B B0 00 F0 52 F9 00 F0 4F FE 01 F0 F4 FC 01 F0 ...  returns 0x3C (0002ms, 0406ms total)
T13B8 009:122 JLINK_ReadMemEx(0x0800025A, 0x0002 Bytes, ..., Flags = 0x02000000) -- Read from C cache (2 bytes @ 0x0800025A) - Data: 00 F0  returns 0x02 (0000ms, 0406ms total)
T13B8 009:122 JLINK_SetBPEx(Addr = 0x0800025E, Type = 0xFFFFFFF2)  returns 0x00000005 (0000ms, 0406ms total)
T13B8 009:122 JLINK_SetBPEx(Addr = 0x080001C4, Type = 0xFFFFFFF2)  returns 0x00000006 (0000ms, 0406ms total)
T13B8 009:122 JLINK_Go() -- CPU_ReadMem(4 bytes @ 0xE0001000) -- CPU_WriteMem(4 bytes @ 0xE0002008) (0002ms, 0408ms total)
T13B8 009:225 JLINK_IsHalted()  returns TRUE (0001ms, 0409ms total)
T13B8 009:226 JLINK_Halt()  returns 0x00 (0001ms, 0409ms total)
T13B8 009:227 JLINK_IsHalted()  returns TRUE (0000ms, 0409ms total)
T13B8 009:227 JLINK_IsHalted()  returns TRUE (0000ms, 0409ms total)
T13B8 009:227 JLINK_IsHalted()  returns TRUE (0000ms, 0409ms total)
T13B8 009:227 JLINK_ReadReg(R15 (PC))  returns 0x0800025E (0000ms, 0409ms total)
T13B8 009:227 JLINK_ReadReg(XPSR)  returns 0x61000000 (0000ms, 0409ms total)
T13B8 009:227 JLINK_ClrBPEx(BPHandle = 0x00000005)  returns 0x00 (0000ms, 0409ms total)
T13B8 009:227 JLINK_ClrBPEx(BPHandle = 0x00000006)  returns 0x00 (0000ms, 0409ms total)
T13B8 009:227 JLINK_ReadMemU32(0xE000ED30, 0x0001 Items, ...) -- CPU_ReadMem(4 bytes @ 0xE000ED30) - Data: 02 00 00 00  returns 0x01 (0000ms, 0409ms total)
T13B8 009:227 JLINK_ReadMemU32(0xE0001028, 0x0001 Items, ...) -- CPU_ReadMem(4 bytes @ 0xE0001028) - Data: 00 00 00 00  returns 0x01 (0001ms, 0410ms total)
T13B8 009:228 JLINK_ReadMemU32(0xE0001038, 0x0001 Items, ...) -- CPU_ReadMem(4 bytes @ 0xE0001038) - Data: 00 02 00 00  returns 0x01 (0000ms, 0410ms total)
T13B8 009:228 JLINK_ReadMemU32(0xE0001048, 0x0001 Items, ...) -- CPU_ReadMem(4 bytes @ 0xE0001048) - Data: 00 00 00 00  returns 0x01 (0000ms, 0410ms total)
T13B8 009:228 JLINK_ReadMemU32(0xE0001058, 0x0001 Items, ...) -- CPU_ReadMem(4 bytes @ 0xE0001058) - Data: 00 00 00 00  returns 0x01 (0001ms, 0411ms total)
T13B8 009:229 JLINK_ReadReg(R0)  returns 0x00000001 (0000ms, 0411ms total)
T13B8 009:229 JLINK_ReadReg(R1)  returns 0x20000E10 (0000ms, 0411ms total)
T13B8 009:229 JLINK_ReadReg(R2)  returns 0x20000E10 (0000ms, 0411ms total)
T13B8 009:229 JLINK_ReadReg(R3)  returns 0x00000000 (0000ms, 0411ms total)
T13B8 009:229 JLINK_ReadReg(R4)  returns 0x08009DFC (0000ms, 0411ms total)
T13B8 009:229 JLINK_ReadReg(R5)  returns 0x08009DFC (0000ms, 0411ms total)
T13B8 009:229 JLINK_ReadReg(R6)  returns 0x00000000 (0000ms, 0411ms total)
T13B8 009:230 JLINK_ReadReg(R7)  returns 0x00000000 (0000ms, 0412ms total)
T13B8 009:230 JLINK_ReadReg(R8)  returns 0x00000000 (0000ms, 0412ms total)
T13B8 009:230 JLINK_ReadReg(R9)  returns 0x00000000 (0000ms, 0412ms total)
T13B8 009:230 JLINK_ReadReg(R10)  returns 0x00000000 (0000ms, 0412ms total)
T13B8 009:230 JLINK_ReadReg(R11)  returns 0x00000000 (0000ms, 0412ms total)
T13B8 009:230 JLINK_ReadReg(R12)  returns 0x00000010 (0000ms, 0412ms total)
T13B8 009:230 JLINK_ReadReg(R13 (SP))  returns 0x200031B0 (0000ms, 0412ms total)
T13B8 009:230 JLINK_ReadReg(R14)  returns 0x08000EE1 (0000ms, 0412ms total)
T13B8 009:230 JLINK_ReadReg(R15 (PC))  returns 0x0800025E (0000ms, 0412ms total)
T13B8 009:230 JLINK_ReadReg(XPSR)  returns 0x61000000 (0000ms, 0412ms total)
T13B8 009:230 JLINK_ReadReg(MSP)  returns 0x200031B0 (0000ms, 0412ms total)
T13B8 009:230 JLINK_ReadReg(PSP)  returns 0x00000000 (0000ms, 0412ms total)
T13B8 009:230 JLINK_ReadReg(CFBP)  returns 0x00000001 (0001ms, 0413ms total)
T13B8 009:231 JLINK_ReadReg(FPSCR)  returns 0x00000000 (0002ms, 0415ms total)
T13B8 009:233 JLINK_ReadReg(FPS0)  returns 0x00000000 (0001ms, 0416ms total)
T13B8 009:234 JLINK_ReadReg(FPS1)  returns 0x00000000 (0000ms, 0416ms total)
T13B8 009:234 JLINK_ReadReg(FPS2)  returns 0x00000000 (0000ms, 0416ms total)
T13B8 009:234 JLINK_ReadReg(FPS3)  returns 0x00000000 (0000ms, 0416ms total)
T13B8 009:234 JLINK_ReadReg(FPS4)  returns 0x00000000 (0000ms, 0416ms total)
T13B8 009:234 JLINK_ReadReg(FPS5)  returns 0x00000000 (0000ms, 0416ms total)
T13B8 009:234 JLINK_ReadReg(FPS6)  returns 0x00000000 (0000ms, 0416ms total)
T13B8 009:234 JLINK_ReadReg(FPS7)  returns 0x00000000 (0000ms, 0416ms total)
T13B8 009:234 JLINK_ReadReg(FPS8)  returns 0x00000000 (0000ms, 0416ms total)
T13B8 009:234 JLINK_ReadReg(FPS9)  returns 0x00000000 (0000ms, 0416ms total)
T13B8 009:234 JLINK_ReadReg(FPS10)  returns 0x00000000 (0000ms, 0416ms total)
T13B8 009:234 JLINK_ReadReg(FPS11)  returns 0x00000000 (0000ms, 0416ms total)
T13B8 009:234 JLINK_ReadReg(FPS12)  returns 0x00000000 (0001ms, 0417ms total)
T13B8 009:235 JLINK_ReadReg(FPS13)  returns 0x00000000 (0000ms, 0417ms total)
T13B8 009:235 JLINK_ReadReg(FPS14)  returns 0x00000000 (0000ms, 0417ms total)
T13B8 009:235 JLINK_ReadReg(FPS15)  returns 0x00000000 (0000ms, 0417ms total)
T13B8 009:235 JLINK_ReadReg(FPS16)  returns 0x00000000 (0000ms, 0417ms total)
T13B8 009:235 JLINK_ReadReg(FPS17)  returns 0x00000000 (0000ms, 0417ms total)
T13B8 009:235 JLINK_ReadReg(FPS18)  returns 0x00000000 (0000ms, 0417ms total)
T13B8 009:235 JLINK_ReadReg(FPS19)  returns 0x00000000 (0000ms, 0417ms total)
T13B8 009:235 JLINK_ReadReg(FPS20)  returns 0x00000000 (0000ms, 0417ms total)
T13B8 009:235 JLINK_ReadReg(FPS21)  returns 0x00000000 (0000ms, 0417ms total)
T13B8 009:235 JLINK_ReadReg(FPS22)  returns 0x00000000 (0000ms, 0417ms total)
T13B8 009:235 JLINK_ReadReg(FPS23)  returns 0x00000000 (0000ms, 0417ms total)
T13B8 009:235 JLINK_ReadReg(FPS24)  returns 0x00000000 (0001ms, 0418ms total)
T13B8 009:236 JLINK_ReadReg(FPS25)  returns 0x00000000 (0000ms, 0418ms total)
T13B8 009:236 JLINK_ReadReg(FPS26)  returns 0x00000000 (0000ms, 0418ms total)
T13B8 009:236 JLINK_ReadReg(FPS27)  returns 0x00000000 (0000ms, 0418ms total)
T13B8 009:236 JLINK_ReadReg(FPS28)  returns 0x00000000 (0000ms, 0418ms total)
T13B8 009:236 JLINK_ReadReg(FPS29)  returns 0x00000000 (0000ms, 0418ms total)
T13B8 009:236 JLINK_ReadReg(FPS30)  returns 0x00000000 (0000ms, 0418ms total)
T13B8 009:236 JLINK_ReadReg(FPS31)  returns 0x00000000 (0000ms, 0418ms total)
T2D20 009:237 JLINK_ReadMemEx(0x200031DC, 0x0004 Bytes, ..., Flags = 0x02000000) -- CPU_ReadMem(64 bytes @ 0x200031C0) -- Updating C cache (64 bytes @ 0x200031C0) -- Read from C cache (4 bytes @ 0x200031DC) - Data: CD 98 00 08  returns 0x04 (0001ms, 0419ms total)
T2D20 009:238 JLINK_ReadMemEx(0x200031D8, 0x0002 Bytes, ..., Flags = 0x02000000) -- Read from C cache (2 bytes @ 0x200031D8) - Data: 00 00  returns 0x02 (0000ms, 0419ms total)
T2D20 009:238 JLINK_ReadMemU32(0xE0001004, 0x0001 Items, ...) -- CPU_ReadMem(4 bytes @ 0xE0001004) - Data: BF 00 00 00  returns 0x01 (0000ms, 0419ms total)
T2D20 009:244 JLINK_ReadMemEx(0x0800025A, 0x0002 Bytes, ..., Flags = 0x02000000) -- CPU_ReadMem(64 bytes @ 0x08000240) -- Updating C cache (64 bytes @ 0x08000240) -- Read from C cache (2 bytes @ 0x0800025A) - Data: 00 F0  returns 0x02 (0001ms, 0420ms total)
T2D20 009:245 JLINK_ReadMemEx(0x0800025C, 0x003C Bytes, ..., Flags = 0x02000000) -- CPU_ReadMem(64 bytes @ 0x08000280) -- Updating C cache (64 bytes @ 0x08000280) -- Read from C cache (60 bytes @ 0x0800025C) - Data: 4F FE 01 F0 F4 FC 01 F0 93 FC 0A A8 03 F0 71 FA ...  returns 0x3C (0001ms, 0421ms total)
T13B8 009:756 JLINK_ReadMemEx(0x0800025E, 0x0002 Bytes, ..., Flags = 0x02000000) -- Read from C cache (2 bytes @ 0x0800025E) - Data: 01 F0  returns 0x02 (0000ms, 0421ms total)
T13B8 009:756 JLINK_SetBPEx(Addr = 0x08000262, Type = 0xFFFFFFF2)  returns 0x00000007 (0000ms, 0421ms total)
T13B8 009:756 JLINK_SetBPEx(Addr = 0x080001C4, Type = 0xFFFFFFF2)  returns 0x00000008 (0000ms, 0421ms total)
T13B8 009:756 JLINK_Go() -- CPU_ReadMem(4 bytes @ 0xE0001000) -- CPU_WriteMem(4 bytes @ 0xE0002008) (0002ms, 0423ms total)
T13B8 009:859 JLINK_IsHalted()  returns TRUE (0001ms, 0424ms total)
T13B8 009:860 JLINK_Halt()  returns 0x00 (0000ms, 0423ms total)
T13B8 009:860 JLINK_IsHalted()  returns TRUE (0001ms, 0424ms total)
T13B8 009:861 JLINK_IsHalted()  returns TRUE (0000ms, 0423ms total)
T13B8 009:861 JLINK_IsHalted()  returns TRUE (0000ms, 0423ms total)
T13B8 009:861 JLINK_ReadReg(R15 (PC))  returns 0x08000262 (0000ms, 0423ms total)
T13B8 009:861 JLINK_ReadReg(XPSR)  returns 0x61000000 (0000ms, 0423ms total)
T13B8 009:861 JLINK_ClrBPEx(BPHandle = 0x00000007)  returns 0x00 (0000ms, 0423ms total)
T13B8 009:861 JLINK_ClrBPEx(BPHandle = 0x00000008)  returns 0x00 (0000ms, 0423ms total)
T13B8 009:861 JLINK_ReadMemU32(0xE000ED30, 0x0001 Items, ...) -- CPU_ReadMem(4 bytes @ 0xE000ED30) - Data: 02 00 00 00  returns 0x01 (0000ms, 0423ms total)
T13B8 009:861 JLINK_ReadMemU32(0xE0001028, 0x0001 Items, ...) -- CPU_ReadMem(4 bytes @ 0xE0001028) - Data: 00 00 00 00  returns 0x01 (0001ms, 0424ms total)
T13B8 009:862 JLINK_ReadMemU32(0xE0001038, 0x0001 Items, ...) -- CPU_ReadMem(4 bytes @ 0xE0001038) - Data: 00 02 00 00  returns 0x01 (0000ms, 0424ms total)
T13B8 009:862 JLINK_ReadMemU32(0xE0001048, 0x0001 Items, ...) -- CPU_ReadMem(4 bytes @ 0xE0001048) - Data: 00 00 00 00  returns 0x01 (0000ms, 0424ms total)
T13B8 009:862 JLINK_ReadMemU32(0xE0001058, 0x0001 Items, ...) -- CPU_ReadMem(4 bytes @ 0xE0001058) - Data: 00 00 00 00  returns 0x01 (0001ms, 0425ms total)
T13B8 009:863 JLINK_ReadReg(R0)  returns 0x00002710 (0000ms, 0425ms total)
T13B8 009:863 JLINK_ReadReg(R1)  returns 0x00000001 (0000ms, 0425ms total)
T13B8 009:863 JLINK_ReadReg(R2)  returns 0x200031A0 (0000ms, 0425ms total)
T13B8 009:863 JLINK_ReadReg(R3)  returns 0x00002710 (0000ms, 0425ms total)
T13B8 009:863 JLINK_ReadReg(R4)  returns 0x08009DFC (0000ms, 0425ms total)
T13B8 009:863 JLINK_ReadReg(R5)  returns 0x08009DFC (0000ms, 0425ms total)
T13B8 009:863 JLINK_ReadReg(R6)  returns 0x00000000 (0000ms, 0425ms total)
T13B8 009:863 JLINK_ReadReg(R7)  returns 0x00000000 (0000ms, 0425ms total)
T13B8 009:863 JLINK_ReadReg(R8)  returns 0x00000000 (0000ms, 0425ms total)
T13B8 009:863 JLINK_ReadReg(R9)  returns 0x00000000 (0000ms, 0425ms total)
T13B8 009:863 JLINK_ReadReg(R10)  returns 0x00000000 (0000ms, 0425ms total)
T13B8 009:863 JLINK_ReadReg(R11)  returns 0x00000000 (0001ms, 0426ms total)
T13B8 009:864 JLINK_ReadReg(R12)  returns 0x00000010 (0000ms, 0426ms total)
T13B8 009:864 JLINK_ReadReg(R13 (SP))  returns 0x200031B0 (0000ms, 0426ms total)
T13B8 009:864 JLINK_ReadReg(R14)  returns 0x08001C3B (0000ms, 0426ms total)
T13B8 009:864 JLINK_ReadReg(R15 (PC))  returns 0x08000262 (0000ms, 0426ms total)
T13B8 009:864 JLINK_ReadReg(XPSR)  returns 0x61000000 (0000ms, 0426ms total)
T13B8 009:864 JLINK_ReadReg(MSP)  returns 0x200031B0 (0000ms, 0426ms total)
T13B8 009:864 JLINK_ReadReg(PSP)  returns 0x00000000 (0000ms, 0426ms total)
T13B8 009:864 JLINK_ReadReg(CFBP)  returns 0x00000001 (0000ms, 0426ms total)
T13B8 009:864 JLINK_ReadReg(FPSCR)  returns 0x00000000 (0003ms, 0429ms total)
T13B8 009:867 JLINK_ReadReg(FPS0)  returns 0x00000000 (0000ms, 0429ms total)
T13B8 009:867 JLINK_ReadReg(FPS1)  returns 0x00000000 (0000ms, 0429ms total)
T13B8 009:867 JLINK_ReadReg(FPS2)  returns 0x00000000 (0000ms, 0429ms total)
T13B8 009:867 JLINK_ReadReg(FPS3)  returns 0x00000000 (0000ms, 0429ms total)
T13B8 009:867 JLINK_ReadReg(FPS4)  returns 0x00000000 (0000ms, 0429ms total)
T13B8 009:867 JLINK_ReadReg(FPS5)  returns 0x00000000 (0000ms, 0429ms total)
T13B8 009:867 JLINK_ReadReg(FPS6)  returns 0x00000000 (0000ms, 0429ms total)
T13B8 009:867 JLINK_ReadReg(FPS7)  returns 0x00000000 (0000ms, 0429ms total)
T13B8 009:867 JLINK_ReadReg(FPS8)  returns 0x00000000 (0000ms, 0429ms total)
T13B8 009:867 JLINK_ReadReg(FPS9)  returns 0x00000000 (0000ms, 0429ms total)
T13B8 009:867 JLINK_ReadReg(FPS10)  returns 0x00000000 (0000ms, 0429ms total)
T13B8 009:867 JLINK_ReadReg(FPS11)  returns 0x00000000 (0000ms, 0429ms total)
T13B8 009:867 JLINK_ReadReg(FPS12)  returns 0x00000000 (0000ms, 0429ms total)
T13B8 009:867 JLINK_ReadReg(FPS13)  returns 0x00000000 (0001ms, 0430ms total)
T13B8 009:868 JLINK_ReadReg(FPS14)  returns 0x00000000 (0000ms, 0430ms total)
T13B8 009:868 JLINK_ReadReg(FPS15)  returns 0x00000000 (0000ms, 0430ms total)
T13B8 009:868 JLINK_ReadReg(FPS16)  returns 0x00000000 (0000ms, 0430ms total)
T13B8 009:868 JLINK_ReadReg(FPS17)  returns 0x00000000 (0000ms, 0430ms total)
T13B8 009:868 JLINK_ReadReg(FPS18)  returns 0x00000000 (0000ms, 0430ms total)
T13B8 009:868 JLINK_ReadReg(FPS19)  returns 0x00000000 (0000ms, 0430ms total)
T13B8 009:868 JLINK_ReadReg(FPS20)  returns 0x00000000 (0000ms, 0430ms total)
T13B8 009:868 JLINK_ReadReg(FPS21)  returns 0x00000000 (0000ms, 0430ms total)
T13B8 009:868 JLINK_ReadReg(FPS22)  returns 0x00000000 (0000ms, 0430ms total)
T13B8 009:868 JLINK_ReadReg(FPS23)  returns 0x00000000 (0000ms, 0430ms total)
T13B8 009:868 JLINK_ReadReg(FPS24)  returns 0x00000000 (0000ms, 0430ms total)
T13B8 009:868 JLINK_ReadReg(FPS25)  returns 0x00000000 (0000ms, 0430ms total)
T13B8 009:868 JLINK_ReadReg(FPS26)  returns 0x00000000 (0001ms, 0431ms total)
T13B8 009:869 JLINK_ReadReg(FPS27)  returns 0x00000000 (0000ms, 0431ms total)
T13B8 009:869 JLINK_ReadReg(FPS28)  returns 0x00000000 (0000ms, 0431ms total)
